!LRM Calibration        
!DATE: 03-May-2007      
!Vgs[V]=       -0.500   
!Vds[V]=        6.000   
!Igs[mA]=        0.000  
!Ids[mA]=      133.151  
# GHZ S RI  R  50 
! 
!        Freq            Res11	         Ims11	          Res21	         Ims21           Res12          Ims12	        Res22	        Ims22 
!        ----            -----          -----            -----          -----           -----          -----           -----           -----  
      0.04500000      0.99788924     -0.04248920     -8.00549643      0.24479374     -0.00038747      0.00432316      0.79321290     -0.03445848
      0.16988750      0.97772769     -0.14546399     -7.80998336      0.78480137      0.00147898      0.01146839      0.76516078     -0.08058739
      0.29477500      0.95295263     -0.24257670     -7.67086013      1.24567226      0.00350769      0.01909756      0.74760942     -0.11812943
      0.41966250      0.91793456     -0.33640085     -7.48106857      1.70849724      0.00639791      0.02643756      0.72953899     -0.15681995
      0.54455000      0.87453827     -0.42292697     -7.25447613      2.12751824      0.00997815      0.03316676      0.70833552     -0.19187910
      0.66943750      0.82352007     -0.50156708     -6.99983952      2.50617364      0.01404457      0.03928564      0.68575809     -0.22328088
      0.79432500      0.76732738     -0.57251544     -6.71722938      2.84685457      0.01873177      0.04477230      0.66130127     -0.25189965
      0.91921250      0.70503349     -0.63522708     -6.41816072      3.15095002      0.02378919      0.04942703      0.63590975     -0.27722238
      1.04410000      0.64045811     -0.68937556     -6.10079571      3.42099750      0.02902168      0.05343644      0.60854901     -0.29928865
      1.16898750      0.57485219     -0.73404051     -5.77972761      3.63738498      0.03436158      0.05670871      0.58153579     -0.31749610
      1.29387500      0.50810743     -0.77165756     -5.45226713      3.82223425      0.03967942      0.05942817      0.55505680     -0.33309490
      1.41876250      0.44231195     -0.80235568     -5.12954337      3.98309076      0.04497712      0.06164649      0.52862784     -0.34800532
      1.54365000      0.37737956     -0.82645233     -4.82477377      4.08928629      0.05009720      0.06340289      0.50371321     -0.35704008
      1.66853750      0.31345975     -0.84483793     -4.51703981      4.18003822      0.05528095      0.06447447      0.47837098     -0.36611246
      1.79342500      0.25258458     -0.85647993     -4.21719105      4.24293373      0.06012433      0.06516136      0.45335741     -0.37253288
      1.91831250      0.19411378     -0.86387717     -3.93492471      4.28292310      0.06473420      0.06544656      0.42997445     -0.37699271
      2.04320000      0.13846815     -0.86727387     -3.66877514      4.30038537      0.06923799      0.06554628      0.40842007     -0.37988132
      2.16808750      0.08560107     -0.86736293     -3.41055430      4.30531683      0.07347697      0.06513144      0.38691059     -0.38120640
      2.29297500      0.03611225     -0.86456119     -3.16928272      4.29726091      0.07736883      0.06476424      0.36744754     -0.38185495
      2.41786250     -0.01111552     -0.85977775     -2.94723606      4.27926248      0.08115975      0.06412544      0.34943913     -0.38148698
      2.54275000     -0.05586940     -0.85238658     -2.73120825      4.24820788      0.08466802      0.06320681      0.33165625     -0.38094565
      2.66763750     -0.09771041     -0.84291004     -2.53115627      4.20807886      0.08795929      0.06208757      0.31466777     -0.37910447
      2.79252500     -0.13590080     -0.83186637     -2.34364768      4.16074578      0.09102017      0.06098957      0.29959012     -0.37661192
      2.91741250     -0.17224594     -0.82036098     -2.16681378      4.10707837      0.09380663      0.05985503      0.28498026     -0.37379735
      3.04230000     -0.20636954     -0.80848755     -2.00315484      4.05454527      0.09645390      0.05873176      0.27126549     -0.37111374
      3.16718750     -0.23828457     -0.79516762     -1.84989233      3.99630623      0.09902953      0.05721593      0.25872725     -0.36772703
      3.29207500     -0.26835188     -0.78109633     -1.70441181      3.93655177      0.10125205      0.05592720      0.24730658     -0.36466908
      3.41696250     -0.29516231     -0.76708535     -1.57036652      3.87207748      0.10348010      0.05471979      0.23596001     -0.36104307
      3.54185000     -0.32197614     -0.75263954     -1.44276253      3.80896416      0.10535726      0.05324027      0.22509719     -0.35732217
      3.66673750     -0.34567074     -0.73819790     -1.32420442      3.74353436      0.10731980      0.05190444      0.21581077     -0.35367424
      3.79162500     -0.36883696     -0.72435763     -1.21542672      3.67928625      0.10906613      0.05046399      0.20624197     -0.35004931
      3.91651250     -0.39048711     -0.70962461     -1.11468581      3.61346856      0.11072060      0.04917393      0.19811378     -0.34633791
      4.04140000     -0.41025173     -0.69505641     -1.01667767      3.55012371      0.11229219      0.04764133      0.18980264     -0.34251592
      4.16628750     -0.42891432     -0.68084280     -0.92526358      3.48706570      0.11368148      0.04633587      0.18190671     -0.33982697
      4.29117500     -0.44665611     -0.66703853     -0.84059731      3.42258737      0.11491983      0.04516306      0.17478424     -0.33614411
      4.41606250     -0.46351882     -0.65290734     -0.76069247      3.35901331      0.11630648      0.04382820      0.16775895     -0.33282289
      4.54095000     -0.47881020     -0.63875338     -0.68674504      3.29714288      0.11736070      0.04248415      0.16178621     -0.32951489
      4.66583750     -0.49350123     -0.62534203     -0.61543850      3.23683047      0.11846340      0.04106048      0.15491348     -0.32613744
      4.79072500     -0.50730853     -0.61188116     -0.54950407      3.17807335      0.11966683      0.03989657      0.14939906     -0.32336452
      4.91561250     -0.52051225     -0.59871036     -0.48652012      3.11960343      0.12063343      0.03856579      0.14367679     -0.31993456
      5.04050000     -0.53222595     -0.58574599     -0.42837215      3.06304291      0.12139017      0.03738021      0.13820311     -0.31740976
      5.16538750     -0.54445608     -0.57297433     -0.37389240      3.00666210      0.12238265      0.03605657      0.13332483     -0.31442031
      5.29027500     -0.55521900     -0.56008307     -0.32082584      2.95092474      0.12313218      0.03483214      0.12816550     -0.31143608
      5.41516250     -0.56513750     -0.54770152     -0.27078017      2.89634982      0.12392500      0.03372209      0.12323710     -0.30881956
      5.54005000     -0.57481377     -0.53612708     -0.22579923      2.84477809      0.12468514      0.03254068      0.11948101     -0.30619371
      5.66493750     -0.58373632     -0.52440195     -0.18184902      2.79313371      0.12538271      0.03134281      0.11505181     -0.30376230
      5.78982500     -0.59226057     -0.51273767     -0.14092989      2.74378520      0.12595728      0.03023479      0.11153386     -0.30132025
      5.91471250     -0.60043808     -0.50178427     -0.10118383      2.69419204      0.12645197      0.02909570      0.10747574     -0.29863839
      6.03960000     -0.60838550     -0.49080744     -0.06356192      2.64820232      0.12711829      0.02810133      0.10390773     -0.29673854
      6.16448750     -0.61571790     -0.48021117     -0.02759034      2.60168507      0.12772692      0.02703727      0.10048324     -0.29497802
      6.28937500     -0.62260936     -0.46956860      0.00557440      2.55636616      0.12808316      0.02604914      0.09703426     -0.29302166
      6.41426250     -0.62955282     -0.45890138      0.03789327      2.51222139      0.12870078      0.02490592      0.09363584     -0.29085658
      6.53915000     -0.63590312     -0.44883445      0.06604015      2.46929811      0.12910227      0.02402013      0.09077183     -0.28895328
      6.66403750     -0.64147740     -0.43885717      0.09616066      2.42656256      0.12944337      0.02293620      0.08778191     -0.28722360
      6.78892500     -0.64716735     -0.42922394      0.12259315      2.38431020      0.12985008      0.02202495      0.08464053     -0.28514104
      6.91381250     -0.65343872     -0.41901685      0.14926070      2.34515584      0.13046543      0.02097123      0.08209427     -0.28409160
      7.03870000     -0.65791951     -0.40961021      0.17413152      2.30601291      0.13055928      0.01995256      0.07924510     -0.28217361
      7.16358750     -0.66269324     -0.40009705      0.19842961      2.26677605      0.13098899      0.01906587      0.07672695     -0.28083458
      7.28847500     -0.66739057     -0.39122285      0.22054367      2.22958829      0.13143591      0.01807859      0.07421705     -0.27932688
      7.41336250     -0.67187880     -0.38201558      0.24307622      2.19283929      0.13160279      0.01709843      0.07203117     -0.27832717
      7.53825000     -0.67592051     -0.37303516      0.26371162      2.15734258      0.13186024      0.01616410      0.06920622     -0.27671194
      7.66313750     -0.67968105     -0.36439423      0.28366145      2.12173436      0.13217611      0.01512152      0.06683237     -0.27569484
      7.78802500     -0.68329432     -0.35585477      0.30252847      2.08769938      0.13227229      0.01418786      0.06454205     -0.27441115
      7.91291250     -0.68661052     -0.34762665      0.31993979      2.05268787      0.13241073      0.01314732      0.06199262     -0.27285759
      8.03780000     -0.68972515     -0.33950746      0.33709597      2.02003791      0.13268826      0.01253177      0.06020875     -0.27224593
      8.16268750     -0.69295453     -0.33154862      0.35295243      1.98865958      0.13287391      0.01160228      0.05861584     -0.27096174
      8.28757500     -0.69587632     -0.32410804      0.36721981      1.95558129      0.13288505      0.01080439      0.05618379     -0.26984013
      8.41246250     -0.69845242     -0.31646986      0.38195022      1.92413370      0.13317673      0.01002260      0.05426358     -0.26881602
      8.53735000     -0.70166651     -0.30913119      0.39649620      1.89444443      0.13324102      0.00924541      0.05209450     -0.26791145
      8.66223750     -0.70426679     -0.30169449      0.40968078      1.86482991      0.13348421      0.00855499      0.04988509     -0.26707539
      8.78712500     -0.70660982     -0.29451618      0.42293597      1.83648911      0.13358859      0.00770738      0.04821126     -0.26657230
      8.91201250     -0.70897552     -0.28785345      0.43480592      1.80854907      0.13373676      0.00696657      0.04626634     -0.26594455
      9.03690000     -0.71168887     -0.28072461      0.44641662      1.78084937      0.13389532      0.00625178      0.04374705     -0.26486819
      9.16178750     -0.71399129     -0.27407781      0.45720580      1.75371399      0.13395486      0.00551469      0.04226786     -0.26376851
      9.28667500     -0.71587287     -0.26737675      0.46816557      1.72770603      0.13393175      0.00469526      0.04074902     -0.26326831
      9.41156250     -0.71763780     -0.26118720      0.47877926      1.70187342      0.13404469      0.00412418      0.03884881     -0.26260227
      9.53645000     -0.71977597     -0.25458380      0.48827081      1.67570816      0.13421481      0.00342289      0.03688432     -0.26212105
      9.66133750     -0.72157445     -0.24774531      0.49824666      1.65030483      0.13427435      0.00278006      0.03536861     -0.26170169
      9.78622500     -0.72475370     -0.24102951      0.50738005      1.62697783      0.13421076      0.00179504      0.03291482     -0.26039576
      9.91111250     -0.72522569     -0.23559054      0.51497259      1.60167451      0.13452546      0.00120681      0.03158884     -0.26048713
     10.03600000     -0.72686207     -0.22907553      0.52467464      1.57880441      0.13449630      0.00044770      0.02961965     -0.26007751
     10.16088750     -0.72845802     -0.22337650      0.53247693      1.55530765      0.13442786     -0.00021909      0.02765983     -0.25926501
     10.28577500     -0.72976651     -0.21698530      0.54093374      1.53309343      0.13447874     -0.00097558      0.02597128     -0.25914693
     10.41066250     -0.73125606     -0.21151982      0.54714210      1.51025398      0.13449135     -0.00159910      0.02440794     -0.25846693
     10.53555000     -0.73235983     -0.20545071      0.55341473      1.48886205      0.13444751     -0.00216192      0.02255023     -0.25804740
     10.66043750     -0.73365063     -0.19984826      0.56090189      1.46735026      0.13455811     -0.00277336      0.02167174     -0.25805931
     10.78532500     -0.73452123     -0.19456768      0.56684527      1.44701890      0.13453542     -0.00349862      0.02010458     -0.25761051
     10.91021250     -0.73584706     -0.18883824      0.57348109      1.42650861      0.13438908     -0.00416515      0.01829295     -0.25748271
     11.03510000     -0.73676194     -0.18340330      0.58039711      1.40565066      0.13435311     -0.00491440      0.01675120     -0.25726941
     11.15998750     -0.73764861     -0.17830150      0.58572068      1.38508026      0.13434741     -0.00551163      0.01488566     -0.25706287
     11.28487500     -0.73843977     -0.17280621      0.59132054      1.36665364      0.13421055     -0.00606742      0.01355277     -0.25666675
     11.40976250     -0.73925310     -0.16779445      0.59670869      1.34742167      0.13437963     -0.00666363      0.01198794     -0.25666974
     11.53465000     -0.74026823     -0.16267525      0.60388072      1.32815507      0.13416545     -0.00712360      0.01081723     -0.25637491
     11.65953750     -0.74102699     -0.15786852      0.60707618      1.30958522      0.13439223     -0.00779016      0.00875328     -0.25615906
     11.78442500     -0.74127311     -0.15259478      0.61194791      1.29169656      0.13416174     -0.00825927      0.00754221     -0.25689787
     11.90931250     -0.74210945     -0.14785045      0.61611374      1.27262888      0.13417549     -0.00884663      0.00595886     -0.25618111
     12.03420000     -0.74281730     -0.14286104      0.61953929      1.25524589      0.13427665     -0.00946496      0.00431631     -0.25614702
     12.15908750     -0.74361894     -0.13857999      0.62306493      1.23768262      0.13400208     -0.00980933      0.00301578     -0.25609803
     12.28397500     -0.74399457     -0.13388239      0.62721395      1.22071886      0.13400649     -0.01030981      0.00156555     -0.25615292
     12.40886250     -0.74487747     -0.12912231      0.63077313      1.20401804      0.13428691     -0.01087448      0.00046993     -0.25566627
     12.53375000     -0.74551852     -0.12511817      0.63712241      1.18698383      0.13420522     -0.01179796     -0.00254735     -0.25648490
     12.65863750     -0.74576229     -0.12038763      0.63841252      1.17108450      0.13417526     -0.01194162     -0.00289284     -0.25616360
     12.78352500     -0.74663667     -0.11614949      0.64128950      1.15550370      0.13402227     -0.01259056     -0.00491380     -0.25526631
     12.90841250     -0.74689577     -0.11124916      0.64493194      1.14020498      0.13400248     -0.01307335     -0.00590903     -0.25624015
     13.03330000     -0.74821474     -0.10604825      0.64775666      1.12481464      0.13398445     -0.01396714     -0.00756530     -0.25565749
     13.15818750     -0.74801990     -0.10279191      0.65117557      1.10945083      0.13402125     -0.01436721     -0.00943845     -0.25591132
     13.28307500     -0.74843117     -0.09829320      0.65296984      1.09422880      0.13396777     -0.01499879     -0.01104777     -0.25616429
     13.40796250     -0.74877404     -0.09369437      0.65621793      1.07928671      0.13376258     -0.01554040     -0.01248368     -0.25590038
     13.53285000     -0.74927197     -0.08952274      0.65775657      1.06517954      0.13357121     -0.01607373     -0.01385165     -0.25502170
     13.65773750     -0.74907690     -0.08567168      0.66148026      1.05102445      0.13362052     -0.01654681     -0.01594724     -0.25621356
     13.78262500     -0.74952160     -0.08160632      0.66366550      1.03671890      0.13368252     -0.01701137     -0.01699157     -0.25622677
     13.90751250     -0.74964556     -0.07707327      0.66565045      1.02326674      0.13363317     -0.01782452     -0.01884873     -0.25557006
     14.03240000     -0.75005756     -0.07283952      0.66834128      1.00968206      0.13331193     -0.01826236     -0.01977278     -0.25628957
     14.15728750     -0.75100535     -0.06745735      0.66943946      0.99457380      0.13339667     -0.01903237     -0.02132041     -0.25605709
     14.28217500     -0.75049433     -0.06456545      0.67099700      0.98253901      0.13328723     -0.01932662     -0.02295015     -0.25550862
     14.40706250     -0.75026782     -0.06095291      0.67287786      0.96918501      0.13304160     -0.01957752     -0.02501350     -0.25557046
     14.53195000     -0.75055144     -0.05655168      0.67576990      0.95606843      0.13302440     -0.02003391     -0.02604571     -0.25641335
     14.65683750     -0.75076332     -0.05338653      0.67702099      0.94259258      0.13308584     -0.02077441     -0.02819992     -0.25559005
     14.78172500     -0.75034995     -0.04927086      0.67879106      0.92937751      0.13300698     -0.02123847     -0.02963351     -0.25668491
     14.90661250     -0.75068398     -0.04580211      0.67996215      0.91711151      0.13277038     -0.02163527     -0.03062064     -0.25624885
     15.03150000     -0.75082394     -0.04259206      0.68141247      0.90495907      0.13245727     -0.02210133     -0.03308243     -0.25631451
     15.15638750     -0.75089029     -0.03866228      0.68312029      0.89335867      0.13265278     -0.02275096     -0.03404204     -0.25709455
     15.28127500     -0.75052647     -0.03509714      0.68419217      0.88064911      0.13233668     -0.02308277     -0.03602990     -0.25643019
     15.40616250     -0.75044810     -0.03108345      0.68444409      0.86789785      0.13215543     -0.02365381     -0.03710982     -0.25626485
     15.53105000     -0.75087396     -0.02764931      0.68539128      0.85695562      0.13215143     -0.02420691     -0.03916412     -0.25576817
     15.65593750     -0.75063480     -0.02418820      0.68575519      0.84713049      0.13179073     -0.02444546     -0.03977047     -0.25691015
     15.78082500     -0.75099721     -0.02033262      0.68688229      0.83514211      0.13139475     -0.02475867     -0.04187359     -0.25579555
     15.90571250     -0.75066829     -0.01712401      0.68800180      0.82362150      0.13159146     -0.02503542     -0.04328377     -0.25714695
     16.03060000     -0.75060374     -0.01316495      0.68845522      0.81233306      0.13144159     -0.02573049     -0.04446679     -0.25653358
     16.15548750     -0.75081794     -0.00987424      0.69026729      0.80200374      0.13156611     -0.02643194     -0.04694672     -0.25715809
     16.28037500     -0.75047832     -0.00615994      0.69093352      0.79086066      0.13155325     -0.02646488     -0.04737284     -0.25715395
     16.40526250     -0.75046114     -0.00291954      0.69176043      0.78010820      0.13141999     -0.02698676     -0.04875303     -0.25742222
     16.53015000     -0.75006062      0.00036089      0.69179031      0.76973188      0.13105621     -0.02763350     -0.05069293     -0.25663191
     16.65503750     -0.74983135      0.00347721      0.69283396      0.75769732      0.13097665     -0.02775620     -0.05234953     -0.25788050
