!LRM Calibration        
!DATE: 03-May-2007      
!Vgs[V]=       -7.000   
!Vds[V]=        0.000   
!Igs[mA]=        0.000  
!Ids[mA]=        0.000  
# GHZ S RI  R  50 
! 
!        Freq            Res11	         Ims11	          Res21	         Ims21           Res12          Ims12	        Res22	        Ims22 
!        ----            -----          -----            -----          -----           -----          -----           -----           -----  
      0.04500000      0.99821864     -0.01310751      0.00017668      0.00412912     -0.00027002      0.00388993      1.00263630     -0.00906160
      0.16988750      0.98994875     -0.03261159      0.00088584      0.01326831      0.00102396      0.01319734      0.98895314     -0.03105337
      0.29477500      0.98637824     -0.05080265      0.00179956      0.02251891      0.00194747      0.02238073      0.98285960     -0.04394177
      0.41966250      0.98319697     -0.07021700      0.00300216      0.03165409      0.00316186      0.03142825      0.97867265     -0.05988100
      0.54455000      0.98070712     -0.08859445      0.00453895      0.04078295      0.00462464      0.04064250      0.97341598     -0.07439546
      0.66943750      0.97701104     -0.10703117      0.00631874      0.04970306      0.00642193      0.04951354      0.96878590     -0.08733600
      0.79432500      0.97403475     -0.12548198      0.00849415      0.05863067      0.00850414      0.05846050      0.96429372     -0.10009134
      0.91921250      0.97033016     -0.14412088      0.01081574      0.06742589      0.01102449      0.06712954      0.96012320     -0.11178362
      1.04410000      0.96646314     -0.16402591      0.01356442      0.07603724      0.01379026      0.07574604      0.95565230     -0.12398552
      1.16898750      0.96114118     -0.18164421      0.01643846      0.08445707      0.01667016      0.08409333      0.95145508     -0.13665455
      1.29387500      0.95592843     -0.19944953      0.01960696      0.09267035      0.01981872      0.09230188      0.94659587     -0.14816715
      1.41876250      0.95058585     -0.21756937      0.02331528      0.10089340      0.02323853      0.10040521      0.94327821     -0.16318022
      1.54365000      0.94445570     -0.23483241      0.02658950      0.10887090      0.02683875      0.10844445      0.93818360     -0.17157837
      1.66853750      0.93879542     -0.25280579      0.03057904      0.11670074      0.03083549      0.11624273      0.93341906     -0.18310500
      1.79342500      0.93229550     -0.26946679      0.03462253      0.12447982      0.03486584      0.12397765      0.92866656     -0.19428211
      1.91831250      0.92504912     -0.28709041      0.03906137      0.13200490      0.03920733      0.13163549      0.92412756     -0.20522007
      2.04320000      0.91703263     -0.30306905      0.04371734      0.13945965      0.04395533      0.13896246      0.91963068     -0.21622841
      2.16808750      0.91024141     -0.31963606      0.04855591      0.14668440      0.04869468      0.14610740      0.91407450     -0.22658967
      2.29297500      0.90228602     -0.33616283      0.05356913      0.15371448      0.05356849      0.15317783      0.90952561     -0.23725800
      2.41786250      0.89376108     -0.35256014      0.05876172      0.16058778      0.05897640      0.15981440      0.90446474     -0.24697315
      2.54275000      0.88499484     -0.36754324      0.06416146      0.16725347      0.06447661      0.16639076      0.89976642     -0.25836468
      2.66763750      0.87602283     -0.38293378      0.06963080      0.17354102      0.06995867      0.17276746      0.89364860     -0.26876386
      2.79252500      0.86664052     -0.39791052      0.07538629      0.17950091      0.07563750      0.17877238      0.88825150     -0.27843258
      2.91741250      0.85703470     -0.41241615      0.08129737      0.18542469      0.08166544      0.18460373      0.88241579     -0.28902418
      3.04230000      0.84841694     -0.42691863      0.08743638      0.19119727      0.08768145      0.19045200      0.87618270     -0.29942520
      3.16718750      0.83805285     -0.44136145      0.09356087      0.19671475      0.09388495      0.19610635      0.87022442     -0.30817646
      3.29207500      0.82685446     -0.45550934      0.10015880      0.20204445      0.10034563      0.20111150      0.86449663     -0.31826149
      3.41696250      0.81681475     -0.46720237      0.10637739      0.20709011      0.10643712      0.20615913      0.85792174     -0.32686820
      3.54185000      0.80591477     -0.48145118      0.11294735      0.21189590      0.11305594      0.21095546      0.85154835     -0.33588060
      3.66673750      0.79523836     -0.49388409      0.11966495      0.21661055      0.11983948      0.21553513      0.84571567     -0.34538966
      3.79162500      0.78456128     -0.50606021      0.12626268      0.22104113      0.12644512      0.22008323      0.83828543     -0.35435933
      3.91651250      0.77356638     -0.51892266      0.13305916      0.22522940      0.13325477      0.22407896      0.83203237     -0.36186364
      4.04140000      0.76136504     -0.53059987      0.13996465      0.22899475      0.14030487      0.22803343      0.82576277     -0.37112891
      4.16628750      0.74987332     -0.54137897      0.14682219      0.23264826      0.14712463      0.23165544      0.81830926     -0.38037977
      4.29117500      0.73884466     -0.55256900      0.15385991      0.23630601      0.15402542      0.23520869      0.81166372     -0.38766938
      4.41606250      0.72676024     -0.56330257      0.16115311      0.23951371      0.16101518      0.23876543      0.80483347     -0.39589167
      4.54095000      0.71431041     -0.57379178      0.16822820      0.24248329      0.16842221      0.24155013      0.79803126     -0.40326377
      4.66583750      0.70319529     -0.58368744      0.17523047      0.24562035      0.17536021      0.24448624      0.79036436     -0.41066938
      4.79072500      0.69047756     -0.59347416      0.18257659      0.24838943      0.18254563      0.24739193      0.78422558     -0.41834659
      4.91561250      0.67817737     -0.60344550      0.18995332      0.25065275      0.19003631      0.24959774      0.77604134     -0.42550874
      5.04050000      0.66692461     -0.61117945      0.19698328      0.25319724      0.19685932      0.25192203      0.76857051     -0.43306354
      5.16538750      0.65434664     -0.62026390      0.20433349      0.25515472      0.20411851      0.25404842      0.76207871     -0.43932675
      5.29027500      0.64150205     -0.62984917      0.21156716      0.25687276      0.21170550      0.25577644      0.75444594     -0.44484536
      5.41516250      0.62927465     -0.63723706      0.21884599      0.25833284      0.21911611      0.25721740      0.74715394     -0.45273410
      5.54005000      0.61690245     -0.64497946      0.22599902      0.25982065      0.22615905      0.25861648      0.74027873     -0.45934230
      5.66493750      0.60483928     -0.65244221      0.23352974      0.26082795      0.23359508      0.25993650      0.73226732     -0.46555205
      5.78982500      0.59230956     -0.65974211      0.24085309      0.26177952      0.24097773      0.26072701      0.72535222     -0.47151571
      5.91471250      0.58012504     -0.66683426      0.24806292      0.26273751      0.24788706      0.26137201      0.71819926     -0.47720602
      6.03960000      0.56843762     -0.67379718      0.25541030      0.26347759      0.25525794      0.26236397      0.71069008     -0.48307303
      6.16448750      0.55589417     -0.68010800      0.26234563      0.26367772      0.26231218      0.26280479      0.70335361     -0.48912875
      6.28937500      0.54295424     -0.68608211      0.26939741      0.26408998      0.26935631      0.26260185      0.69581763     -0.49482380
      6.41426250      0.53104320     -0.69207684      0.27677495      0.26404937      0.27639764      0.26275720      0.68837550     -0.50001386
      6.53915000      0.51886119     -0.69802731      0.28359664      0.26423343      0.28368485      0.26291339      0.68169588     -0.50479030
      6.66403750      0.50589632     -0.70324793      0.29074056      0.26342099      0.29079784      0.26221669      0.67437197     -0.51031821
      6.78892500      0.49408474     -0.70790934      0.29749925      0.26319857      0.29733479      0.26186998      0.66690455     -0.51466401
      6.91381250      0.48235091     -0.71284619      0.30455499      0.26263511      0.30451447      0.26141246      0.65987416     -0.52044496
      7.03870000      0.46923113     -0.71768495      0.31149856      0.26152676      0.31153243      0.26023234      0.65253645     -0.52456092
      7.16358750      0.45671070     -0.72167712      0.31820680      0.26060834      0.31823292      0.25915182      0.64577987     -0.52964383
      7.28847500      0.44563820     -0.72585117      0.32517846      0.25978594      0.32491894      0.25829013      0.63830294     -0.53424277
      7.41336250      0.43345156     -0.73005002      0.33157207      0.25852825      0.33157185      0.25708228      0.63172856     -0.53833061
      7.53825000      0.42109957     -0.73342537      0.33835827      0.25700513      0.33810859      0.25527235      0.62376120     -0.54289644
      7.66313750      0.40906530     -0.73650598      0.34467794      0.25531415      0.34442284      0.25361039      0.61702185     -0.54777444
      7.78802500      0.39787871     -0.73976749      0.35118521      0.25387534      0.35069637      0.25218488      0.61006326     -0.55121259
      7.91291250      0.38614539     -0.74205092      0.35718194      0.25153063      0.35708613      0.24987929      0.60167212     -0.55503575
      8.03780000      0.37408955     -0.74462024      0.36314026      0.24942969      0.36305407      0.24776388      0.59519539     -0.55973694
      8.16268750      0.36286415     -0.74717937      0.36938775      0.24729589      0.36916251      0.24576624      0.58773711     -0.56304201
      8.28757500      0.35081425     -0.74938851      0.37507411      0.24489918      0.37497361      0.24355125      0.58092006     -0.56572396
      8.41246250      0.33956835     -0.75109918      0.38110549      0.24280204      0.38077764      0.24111513      0.57459091     -0.56959527
      8.53735000      0.32878787     -0.75345303      0.38689892      0.24067457      0.38661833      0.23894070      0.56686050     -0.57282330
      8.66223750      0.31801386     -0.75529312      0.39270030      0.23820402      0.39228059      0.23678611      0.55960574     -0.57605300
      8.78712500      0.30626359     -0.75672365      0.39839774      0.23542048      0.39813572      0.23401737      0.55328842     -0.57950067
      8.91201250      0.29614342     -0.75771510      0.40356612      0.23322146      0.40318495      0.23162296      0.54630102     -0.58263709
      9.03690000      0.28562702     -0.75983853      0.40954157      0.23048208      0.40923964      0.22882168      0.53895208     -0.58527048
      9.16178750      0.27392291     -0.76058506      0.41474105      0.22747109      0.41442663      0.22604743      0.53267365     -0.58769775
      9.28667500      0.26384258     -0.76119113      0.41991161      0.22455145      0.41978666      0.22282326      0.52588246     -0.59101961
      9.41156250      0.25351479     -0.76184753      0.42496123      0.22154623      0.42463551      0.21987782      0.51875059     -0.59304236
      9.53645000      0.24304860     -0.76286214      0.43036275      0.21824299      0.42978128      0.21695935      0.51208797     -0.59574601
      9.66133750      0.23242539     -0.76271259      0.43526590      0.21456414      0.43489096      0.21337670      0.50618022     -0.59900888
      9.78622500      0.22004072     -0.76745860      0.44058925      0.21209775      0.44140950      0.20891286      0.49848282     -0.60054545
      9.91111250      0.21250611     -0.76386259      0.44477018      0.20863748      0.44455648      0.20712249      0.49214492     -0.60256335
     10.03600000      0.20209529     -0.76370372      0.44991433      0.20483381      0.44963218      0.20326866      0.48545746     -0.60572035
     10.16088750      0.19231592     -0.76448695      0.45429942      0.20127138      0.45387393      0.19967039      0.47843204     -0.60722701
     10.28577500      0.18280474     -0.76417730      0.45912181      0.19785653      0.45851136      0.19622319      0.47226111     -0.60981148
     10.41066250      0.17259225     -0.76388400      0.46321608      0.19391892      0.46282777      0.19252759      0.46600665     -0.61132468
     10.53555000      0.16319617     -0.76321899      0.46732597      0.19012089      0.46696045      0.18826518      0.45927449     -0.61317739
     10.66043750      0.15370831     -0.76261444      0.47146525      0.18655075      0.47096341      0.18501217      0.45347738     -0.61570074
     10.78532500      0.14494605     -0.76223436      0.47574482      0.18249366      0.47529856      0.18111288      0.44758066     -0.61710159
     10.91021250      0.13560629     -0.76199367      0.47969065      0.17849655      0.47934938      0.17698471      0.44093697     -0.61920539
     11.03510000      0.12649924     -0.76101766      0.48367902      0.17491694      0.48290671      0.17311015      0.43464217     -0.62139647
     11.15998750      0.11780766     -0.76062675      0.48748350      0.17109274      0.48707345      0.16961566      0.42851335     -0.62313226
     11.28487500      0.10823746     -0.75949739      0.49131502      0.16697184      0.49063086      0.16541946      0.42273859     -0.62467813
     11.40976250      0.09987464     -0.75849476      0.49464351      0.16329951      0.49406719      0.16135344      0.41611566     -0.62698639
     11.53465000      0.09059930     -0.75759633      0.49849350      0.15872989      0.49764037      0.15727372      0.41035583     -0.62816474
     11.65953750      0.08217305     -0.75757552      0.50183399      0.15521689      0.50156045      0.15327127      0.40465178     -0.62919539
     11.78442500      0.07403298     -0.75514471      0.50495324      0.15074379      0.50467777      0.14880902      0.39831019     -0.63204162
     11.90931250      0.06481603     -0.75404138      0.50831575      0.14639185      0.50751018      0.14486530      0.39245103     -0.63279057
     12.03420000      0.05619836     -0.75244337      0.51124692      0.14238858      0.51100358      0.14055984      0.38692227     -0.63485499
     12.15908750      0.04821444     -0.75129825      0.51446556      0.13823432      0.51395116      0.13647370      0.38104249     -0.63576646
     12.28397500      0.04056982     -0.74950261      0.51752123      0.13413623      0.51699151      0.13257631      0.37506891     -0.63688296
     12.40886250      0.03273777     -0.74810476      0.52042150      0.13050820      0.52002070      0.12857600      0.37026643     -0.63715575
     12.53375000      0.02442816     -0.74687168      0.52416075      0.12472239      0.52354949      0.12313754      0.36114183     -0.64155015
     12.65863750      0.01679332     -0.74434048      0.52640828      0.12147763      0.52573967      0.11975696      0.35847726     -0.64083838
     12.78352500      0.00992981     -0.74277484      0.52895111      0.11762138      0.52815463      0.11594546      0.35202857     -0.64105653
     12.90841250      0.00231698     -0.74079336      0.53193519      0.11320831      0.53112458      0.11163955      0.34679052     -0.64308237
     13.03330000     -0.00743384     -0.73976218      0.53453666      0.10852239      0.53409514      0.10634956      0.34134984     -0.64355458
     13.15818750     -0.01293058     -0.73757211      0.53682090      0.10447126      0.53613780      0.10275703      0.33536872     -0.64524593
     13.28307500     -0.02084437     -0.73511651      0.53925757      0.10004766      0.53860260      0.09847377      0.32987989     -0.64660887
     13.40796250     -0.02842189     -0.73329206      0.54165685      0.09540953      0.54080731      0.09364123      0.32473345     -0.64740385
     13.53285000     -0.03501830     -0.73125389      0.54365209      0.09122682      0.54284301      0.08914716      0.31895700     -0.64739780
     13.65773750     -0.04148677     -0.72891185      0.54619455      0.08680901      0.54546488      0.08513263      0.31355669     -0.64952078
     13.78262500     -0.04877241     -0.72729040      0.54870439      0.08231292      0.54758486      0.08069492      0.30823050     -0.64997970
     13.90751250     -0.05559166     -0.72492325      0.55033715      0.07818083      0.54944444      0.07608501      0.30263691     -0.65032612
     14.03240000     -0.06215932     -0.72266176      0.55228223      0.07395770      0.55122164      0.07197820      0.29745599     -0.65187951
     14.15728750     -0.07212262     -0.72252718      0.55361884      0.06931425      0.55453443      0.06641340      0.29241348     -0.65156715
     14.28217500     -0.07645067     -0.71856966      0.55539480      0.06534207      0.55484834      0.06287443      0.28666701     -0.65215626
     14.40706250     -0.08342799     -0.71682413      0.55715272      0.06102418      0.55645320      0.05824367      0.28208607     -0.65244420
     14.53195000     -0.08947180     -0.71453441      0.55887288      0.05623039      0.55837323      0.05385134      0.27630712     -0.65385992
     14.65683750     -0.09652552     -0.71232858      0.56037700      0.05144545      0.56019084      0.04971006      0.27036806     -0.65406056
     14.78172500     -0.10267347     -0.70921180      0.56206548      0.04679252      0.56136942      0.04482200      0.26552534     -0.65605097
     14.90661250     -0.10907225     -0.70701632      0.56336828      0.04239642      0.56268421      0.04048066      0.26045938     -0.65555370
     15.03150000     -0.11473406     -0.70522870      0.56497383      0.03826614      0.56390744      0.03643885      0.25446985     -0.65617465
     15.15638750     -0.12126350     -0.70269766      0.56648777      0.03403230      0.56581057      0.03201657      0.25078078     -0.65677279
     15.28127500     -0.12783203     -0.70018120      0.56743609      0.02973369      0.56616991      0.02770897      0.24455582     -0.65726269
     15.40616250     -0.13356974     -0.69772985      0.56862245      0.02510781      0.56765782      0.02338401      0.23982366     -0.65632364
     15.53105000     -0.14023937     -0.69506555      0.56945090      0.02091713      0.56856453      0.01895271      0.23455514     -0.65746244
     15.65593750     -0.14610635     -0.69194114      0.57000362      0.01680105      0.56982116      0.01488245      0.23127282     -0.65802743
     15.78082500     -0.15173459     -0.68985840      0.57151738      0.01241978      0.57035899      0.01042348      0.22551747     -0.65749831
     15.90571250     -0.15726174     -0.68745176      0.57230595      0.00807784      0.57179794      0.00619262      0.22103004     -0.65982874
     16.03060000     -0.16354812     -0.68465042      0.57363560      0.00340184      0.57282730      0.00158073      0.21689926     -0.65887915
     16.15548750     -0.16863968     -0.68203122      0.57505292     -0.00075542      0.57382073     -0.00241815      0.21133135     -0.66027480
     16.28037500     -0.17387312     -0.67875476      0.57544538     -0.00487883      0.57446672     -0.00672943      0.20705085     -0.66004037
     16.40526250     -0.17969328     -0.67665058      0.57636829     -0.00989710      0.57516261     -0.01184771      0.20198999     -0.66100599
     16.53015000     -0.18495341     -0.67415061      0.57725872     -0.01378978      0.57614078     -0.01565057      0.19713246     -0.66089633
     16.65503750     -0.18970817     -0.67139907      0.57792256     -0.01785904      0.57636323     -0.01919536      0.19244305     -0.66260524
