!LRM Calibration        
!DATE: 03-May-2007      
!Vgs[V]=        1.552   
!Vds[V]=        1.561   
!Igs[mA]=        0.000  
!Ids[mA]=        0.000  
# GHZ S RI  R  50 
! 
!        Freq            Res11	         Ims11	          Res21	         Ims21           Res12          Ims12	        Res22	        Ims22 
!        ----            -----          -----            -----          -----           -----          -----           -----           -----  
      0.04500000      0.95666330     -0.03764039      0.00241381      0.00227956      0.00190243      0.00210805     -0.76081073      0.00037991
      0.16988750      0.93990672     -0.13505518      0.00209660      0.00566929      0.00241223      0.00558505     -0.75960909      0.00222808
      0.29477500      0.91508307     -0.22435321      0.00322219      0.00955591      0.00363101      0.00934534     -0.75952629      0.00378429
      0.41966250      0.88809566     -0.31354256      0.00441514      0.01337692      0.00480768      0.01310391     -0.75960099      0.00566939
      0.54455000      0.85170584     -0.39667815      0.00608663      0.01684015      0.00639007      0.01662460     -0.75965190      0.00719929
      0.66943750      0.80605069     -0.47260394      0.00809646      0.02007988      0.00829039      0.01995536     -0.75956157      0.00909240
      0.79432500      0.75772916     -0.54336509      0.01021797      0.02315855      0.01045872      0.02298106     -0.75975220      0.01075584
      0.91921250      0.70407105     -0.60857637      0.01256788      0.02597323      0.01277878      0.02564219     -0.75992269      0.01208010
      1.04410000      0.64438670     -0.66469803      0.01519915      0.02829355      0.01535193      0.02799833     -0.75997212      0.01411098
      1.16898750      0.58416431     -0.71373131      0.01780588      0.03039467      0.01793433      0.03003573     -0.75987837      0.01567472
      1.29387500      0.52343510     -0.75699103      0.02049444      0.03209874      0.02067854      0.03181331     -0.75971566      0.01748304
      1.41876250      0.46045608     -0.79231639      0.02316319      0.03350306      0.02338575      0.03321621     -0.75997692      0.01951305
      1.54365000      0.39832367     -0.82158749      0.02591216      0.03462783      0.02595643      0.03441319     -0.76005872      0.02115244
      1.66853750      0.33674522     -0.84694777      0.02868951      0.03562323      0.02871931      0.03533614     -0.76003374      0.02309408
      1.79342500      0.27674906     -0.86433099      0.03126949      0.03633828      0.03130172      0.03603697     -0.76001479      0.02459494
      1.91831250      0.21769177     -0.87718983      0.03391274      0.03675689      0.03391687      0.03656482     -0.76004338      0.02641140
      2.04320000      0.16189391     -0.88647172      0.03633330      0.03709084      0.03629392      0.03680802     -0.76022919      0.02820367
      2.16808750      0.10800670     -0.89220430      0.03872032      0.03728062      0.03867910      0.03689760     -0.75996300      0.02998813
      2.29297500      0.05621054     -0.89359039      0.04097097      0.03723051      0.04092630      0.03695043     -0.76005055      0.03169622
      2.41786250      0.00692789     -0.89365127      0.04313582      0.03711818      0.04325087      0.03681461     -0.76002351      0.03341924
      2.54275000     -0.03972569     -0.89114678      0.04511956      0.03683120      0.04515523      0.03665534     -0.75995987      0.03524623
      2.66763750     -0.08460516     -0.88552395      0.04705002      0.03651821      0.04706330      0.03617049     -0.75993810      0.03721772
      2.79252500     -0.12615916     -0.87805942      0.04886646      0.03600619      0.04884200      0.03578452     -0.75989957      0.03896111
      2.91741250     -0.16571211     -0.86959318      0.05055197      0.03548218      0.05050842      0.03533329     -0.75982107      0.04088183
      3.04230000     -0.20319968     -0.86064150      0.05216850      0.03491788      0.05217940      0.03464589     -0.75971757      0.04260852
      3.16718750     -0.23884449     -0.84937983      0.05371451      0.03433532      0.05379584      0.03419727     -0.75944185      0.04432047
      3.29207500     -0.27227800     -0.83717046      0.05514982      0.03369320      0.05511432      0.03357198     -0.75951694      0.04613767
      3.41696250     -0.30226006     -0.82479699      0.05649887      0.03310142      0.05629824      0.03290359     -0.75938547      0.04802794
      3.54185000     -0.33235460     -0.81142153      0.05781596      0.03237607      0.05771646      0.03214947     -0.75932002      0.04970179
      3.66673750     -0.35942160     -0.79797651      0.05892647      0.03177297      0.05883752      0.03137199     -0.75900044      0.05167890
      3.79162500     -0.38558486     -0.78530225      0.06001951      0.03104970      0.05995303      0.03077454     -0.75899988      0.05363611
      3.91651250     -0.41033485     -0.77123664      0.06096981      0.03030669      0.06090533      0.03003098     -0.75854187      0.05525840
      4.04140000     -0.43321265     -0.75710630      0.06195785      0.02954203      0.06192793      0.02938860     -0.75880421      0.05718184
      4.16628750     -0.45489262     -0.74324876      0.06292205      0.02884814      0.06279192      0.02855969     -0.75878263      0.05894465
      4.29117500     -0.47525803     -0.72945432      0.06381109      0.02811117      0.06378009      0.02795541     -0.75831302      0.06078587
      4.41606250     -0.49464228     -0.71546769      0.06459236      0.02740699      0.06447935      0.02730072     -0.75827805      0.06255433
      4.54095000     -0.51269138     -0.70129128      0.06539244      0.02671882      0.06535717      0.02655292     -0.75810643      0.06433839
      4.66583750     -0.52988927     -0.68761966      0.06610639      0.02599008      0.06589167      0.02582907     -0.75802946      0.06626960
      4.79072500     -0.54590447     -0.67384627      0.06684677      0.02542837      0.06658019      0.02515883     -0.75781839      0.06795691
      4.91561250     -0.56155664     -0.66029463      0.06742792      0.02467118      0.06725818      0.02437094     -0.75779413      0.06988370
      5.04050000     -0.57536395     -0.64717219      0.06795656      0.02402553      0.06786796      0.02377579     -0.75752465      0.07151996
      5.16538750     -0.58996373     -0.63375091      0.06850903      0.02330840      0.06849095      0.02306790     -0.75738556      0.07332411
      5.29027500     -0.60278301     -0.62031365      0.06896717      0.02255225      0.06899759      0.02241613     -0.75743175      0.07512071
      5.41516250     -0.61438919     -0.60728881      0.06959863      0.02185090      0.06950158      0.02164495     -0.75702020      0.07679091
      5.54005000     -0.62591159     -0.59513440      0.07008823      0.02120017      0.06998282      0.02109893     -0.75693969      0.07879457
      5.66493750     -0.63667667     -0.58257865      0.07049438      0.02047761      0.07049026      0.02033187     -0.75697325      0.08065379
      5.78982500     -0.64673174     -0.57028747      0.07099196      0.01986330      0.07088786      0.01974449     -0.75656004      0.08197563
      5.91471250     -0.65665196     -0.55865349      0.07131218      0.01926990      0.07121648      0.01910463     -0.75602813      0.08419448
      6.03960000     -0.66632031     -0.54698942      0.07184035      0.01862561      0.07149960      0.01839885     -0.75617977      0.08551163
      6.16448750     -0.67500509     -0.53517161      0.07218648      0.01810319      0.07198733      0.01783377     -0.75588239      0.08764100
      6.28937500     -0.68313795     -0.52402407      0.07239758      0.01748634      0.07216751      0.01732930     -0.75559109      0.08938363
      6.41426250     -0.69144376     -0.51270400      0.07266072      0.01686679      0.07258962      0.01657987     -0.75546419      0.09088695
      6.53915000     -0.69909740     -0.50166632      0.07288513      0.01622168      0.07289932      0.01603589     -0.75551634      0.09260817
      6.66403750     -0.70601423     -0.49082171      0.07328511      0.01565860      0.07322896      0.01539014     -0.75505561      0.09445157
      6.78892500     -0.71273053     -0.48045050      0.07347291      0.01500527      0.07334254      0.01485119     -0.75472487      0.09630956
      6.91381250     -0.72012550     -0.46940546      0.07374710      0.01438166      0.07362234      0.01417997     -0.75455812      0.09800536
      7.03870000     -0.72573763     -0.45958296      0.07391858      0.01370843      0.07399125      0.01371482     -0.75421532      0.09971118
      7.16358750     -0.73163617     -0.44922366      0.07415130      0.01324502      0.07403882      0.01317985     -0.75407243      0.10171043
      7.28847500     -0.73742117     -0.43988203      0.07446466      0.01270453      0.07413881      0.01258815     -0.75374088      0.10334403
      7.41336250     -0.74303691     -0.42952476      0.07453461      0.01234472      0.07439581      0.01209718     -0.75366130      0.10508777
      7.53825000     -0.74786309     -0.42004220      0.07464125      0.01175002      0.07445986      0.01147957     -0.75288601      0.10703775
      7.66313750     -0.75250036     -0.41046695      0.07476753      0.01119177      0.07464061      0.01084978     -0.75255223      0.10876932
      7.78802500     -0.75721695     -0.40120462      0.07469018      0.01064865      0.07454012      0.01048689     -0.75236348      0.11047622
      7.91291250     -0.76158974     -0.39210147      0.07489720      0.01040329      0.07478331      0.00988943     -0.75179197      0.11234097
      8.03780000     -0.76568077     -0.38336277      0.07499870      0.00960814      0.07510036      0.00941166     -0.75171471      0.11411897
      8.16268750     -0.76936823     -0.37417261      0.07512215      0.00911636      0.07501037      0.00901356     -0.75111574      0.11565367
      8.28757500     -0.77311838     -0.36596231      0.07519098      0.00884730      0.07499112      0.00864595     -0.75069895      0.11722118
      8.41246250     -0.77667613     -0.35755053      0.07538179      0.00832417      0.07518802      0.00834213     -0.75046312      0.11930514
      8.53735000     -0.78061350     -0.34949679      0.07540483      0.00792869      0.07526020      0.00778970     -0.75012605      0.12078808
      8.66223750     -0.78388749     -0.34146776      0.07558696      0.00757604      0.07528330      0.00736974     -0.74995504      0.12276195
      8.78712500     -0.78700244     -0.33323680      0.07558829      0.00722583      0.07551097      0.00693213     -0.74979991      0.12431205
      8.91201250     -0.78991301     -0.32562344      0.07579551      0.00685626      0.07557651      0.00651064     -0.74914236      0.12620842
      9.03690000     -0.79312119     -0.31770950      0.07585221      0.00649074      0.07559242      0.00612444     -0.74908830      0.12793006
      9.16178750     -0.79585834     -0.31017738      0.07576816      0.00584701      0.07557674      0.00553564     -0.74871663      0.12964732
      9.28667500     -0.79837969     -0.30268360      0.07587738      0.00543304      0.07579056      0.00520102     -0.74825699      0.13154797
      9.41156250     -0.80066414     -0.29565307      0.07591334      0.00482828      0.07575956      0.00478538     -0.74783572      0.13338002
      9.53645000     -0.80313793     -0.28857810      0.07586511      0.00449155      0.07582350      0.00441174     -0.74804963      0.13513827
      9.66133750     -0.80541439     -0.28106238      0.07597053      0.00405429      0.07582893      0.00386430     -0.74734789      0.13639481
      9.78622500     -0.80882951     -0.27331327      0.07615486      0.00364135      0.07567479      0.00339575     -0.74737489      0.13880225
      9.91111250     -0.80991455     -0.26762319      0.07606471      0.00325183      0.07578762      0.00302581     -0.74656629      0.14028597
     10.03600000     -0.81196571     -0.26067038      0.07598034      0.00298039      0.07571072      0.00271729     -0.74614809      0.14182855
     10.16088750     -0.81412181     -0.25387811      0.07594705      0.00277283      0.07570744      0.00240789     -0.74593547      0.14345449
     10.28577500     -0.81627807     -0.24704235      0.07588070      0.00231167      0.07569626      0.00204828     -0.74556861      0.14503253
     10.41066250     -0.81827081     -0.24075645      0.07565884      0.00218833      0.07584445      0.00174941     -0.74530756      0.14692227
     10.53555000     -0.81937437     -0.23423256      0.07579066      0.00162358      0.07555472      0.00155788     -0.74476571      0.14830847
     10.66043750     -0.82135910     -0.22775527      0.07572370      0.00136310      0.07554804      0.00115615     -0.74427951      0.15004244
     10.78532500     -0.82277228     -0.22168916      0.07560090      0.00095560      0.07553720      0.00077777     -0.74408272      0.15188519
     10.91021250     -0.82451890     -0.21515625      0.07561369      0.00046916      0.07558549      0.00044291     -0.74396731      0.15377986
     11.03510000     -0.82585327     -0.20905773      0.07573835      0.00020462      0.07574386      0.00012589     -0.74328078      0.15519624
     11.15998750     -0.82693288     -0.20310245      0.07578604     -0.00006987      0.07555422     -0.00022848     -0.74282296      0.15666330
     11.28487500     -0.82806807     -0.19727291      0.07583985     -0.00023707      0.07542598     -0.00046571     -0.74240131      0.15848070
     11.40976250     -0.82929092     -0.19126578      0.07565199     -0.00043504      0.07534830     -0.00073446     -0.74200168      0.15999165
     11.53465000     -0.83064332     -0.18566820      0.07574974     -0.00067747      0.07555728     -0.00097660     -0.74154322      0.16139151
     11.65953750     -0.83179254     -0.17983748      0.07550189     -0.00112100      0.07530983     -0.00133117     -0.74125931      0.16348526
     11.78442500     -0.83210515     -0.17407749      0.07565001     -0.00128283      0.07538797     -0.00158430     -0.74058089      0.16467098
     11.90931250     -0.83307647     -0.16839740      0.07541790     -0.00166617      0.07525795     -0.00182957     -0.74023408      0.16691344
     12.03420000     -0.83413966     -0.16297647      0.07545193     -0.00198040      0.07514894     -0.00211782     -0.74005229      0.16845573
     12.15908750     -0.83514379     -0.15768926      0.07545841     -0.00237970      0.07529741     -0.00234253     -0.73934041      0.17029308
     12.28397500     -0.83590790     -0.15248868      0.07549810     -0.00250506      0.07524117     -0.00262847     -0.73897969      0.17154423
     12.40886250     -0.83675817     -0.14708154      0.07558834     -0.00268737      0.07535717     -0.00294942     -0.73851316      0.17333842
     12.53375000     -0.83772724     -0.14251653      0.07568879     -0.00304405      0.07524129     -0.00329491     -0.73825565      0.17578928
     12.65863750     -0.83815721     -0.13754405      0.07560762     -0.00321145      0.07532565     -0.00352796     -0.73792309      0.17637448
     12.78352500     -0.83915724     -0.13242073      0.07541033     -0.00346116      0.07539993     -0.00353167     -0.73754485      0.17843056
     12.90841250     -0.83995350     -0.12684010      0.07523001     -0.00361719      0.07517382     -0.00398925     -0.73689157      0.17992327
     13.03330000     -0.84164988     -0.12092022      0.07530217     -0.00412116      0.07525104     -0.00446609     -0.73640827      0.18152979
     13.15818750     -0.84167781     -0.11694737      0.07531605     -0.00451488      0.07516029     -0.00452461     -0.73617895      0.18351951
     13.28307500     -0.84217652     -0.11188073      0.07525351     -0.00462054      0.07510900     -0.00476766     -0.73606941      0.18472644
     13.40796250     -0.84265808     -0.10674987      0.07518307     -0.00513150      0.07515731     -0.00504884     -0.73533978      0.18689402
     13.53285000     -0.84335965     -0.10197193      0.07531145     -0.00530500      0.07499538     -0.00544068     -0.73474974      0.18853909
     13.65773750     -0.84320157     -0.09748296      0.07520588     -0.00547000      0.07479941     -0.00527475     -0.73432943      0.19009009
     13.78262500     -0.84394723     -0.09272713      0.07543415     -0.00562828      0.07499834     -0.00581701     -0.73408250      0.19186901
     13.90751250     -0.84451027     -0.08799026      0.07540105     -0.00592208      0.07510679     -0.00594951     -0.73373277      0.19318259
     14.03240000     -0.84482869     -0.08305938      0.07508019     -0.00584490      0.07502970     -0.00630691     -0.73298342      0.19510959
     14.15728750     -0.84626554     -0.07650419      0.07492450     -0.00657970      0.07484421     -0.00678556     -0.73232307      0.19640927
     14.28217500     -0.84544082     -0.07362714      0.07475108     -0.00645242      0.07471603     -0.00682596     -0.73235925      0.19833429
     14.40706250     -0.84564274     -0.06930383      0.07469126     -0.00675757      0.07466599     -0.00690425     -0.73230101      0.19972416
     14.53195000     -0.84587625     -0.06409832      0.07464236     -0.00720152      0.07455277     -0.00727454     -0.73141033      0.20142834
     14.65683750     -0.84598615     -0.06014593      0.07458528     -0.00778169      0.07463521     -0.00764298     -0.73090754      0.20323429
     14.78172500     -0.84572225     -0.05587475      0.07471439     -0.00794018      0.07448889     -0.00807222     -0.73050796      0.20498237
     14.90661250     -0.84639798     -0.05172351      0.07464245     -0.00815707      0.07461210     -0.00797665     -0.72954745      0.20699054
     15.03150000     -0.84643294     -0.04785990      0.07449483     -0.00845228      0.07404266     -0.00828541     -0.72991270      0.20780903
     15.15638750     -0.84673547     -0.04328336      0.07470259     -0.00848829      0.07435568     -0.00861006     -0.72938806      0.20925134
     15.28127500     -0.84638994     -0.03921244      0.07444825     -0.00844124      0.07417270     -0.00860457     -0.72878657      0.21153598
     15.40616250     -0.84636382     -0.03467166      0.07431363     -0.00830513      0.07384754     -0.00894717     -0.72757101      0.21296242
     15.53105000     -0.84681633     -0.03107518      0.07393316     -0.00908012      0.07408434     -0.00908782     -0.72759828      0.21504285
     15.65593750     -0.84657151     -0.02653342      0.07394229     -0.00893205      0.07406801     -0.00923124     -0.72714140      0.21513983
     15.78082500     -0.84691699     -0.02201153      0.07367515     -0.00920050      0.07368063     -0.00926637     -0.72716197      0.21811317
     15.90571250     -0.84696499     -0.01860547      0.07388081     -0.00938324      0.07373886     -0.00983810     -0.72663703      0.21908525
     16.03060000     -0.84671446     -0.01417909      0.07368954     -0.00976196      0.07381927     -0.00982329     -0.72552388      0.22104571
     16.15548750     -0.84683691     -0.01032096      0.07388982     -0.01031677      0.07384778     -0.01011275     -0.72540486      0.22265577
     16.28037500     -0.84662872     -0.00635264      0.07387769     -0.01044233      0.07365166     -0.01031242     -0.72459626      0.22444141
     16.40526250     -0.84630788     -0.00239989      0.07370030     -0.01018036      0.07343135     -0.01054734     -0.72373637      0.22598655
     16.53015000     -0.84636171      0.00117208      0.07377009     -0.01052662      0.07330107     -0.01069459     -0.72399659      0.22770081
     16.65503750     -0.84635061      0.00478070      0.07395042     -0.01052529      0.07354696     -0.01059844     -0.72393608      0.22897745
