! Created on 04/10/2021 19:13:33
! CINVESTAV

! S-Parameter data
! freq S11 S21 S12 S22
# GHz S RI R 50
0.045000000000000 0.999230870259440 -0.036588285685376 -7.944542327447803 0.182845898371005 0.000058494458995 0.002715150270227 0.739486476812917 -0.014570278299498
0.169887500000000 0.989099465226714 -0.137340453303056 -7.894500622233744 0.686389919325099 0.000829012862390 0.010190287218444 0.735665084339569 -0.054709683286470
0.294775000000000 0.967576787390944 -0.235388245786652 -7.788194250151466 1.176577324670537 0.002465845827010 0.017459610694252 0.727546594542650 -0.093832442620524
0.419662500000000 0.935475535090065 -0.328928135916534 -7.629637050002419 1.644500691359958 0.004907143622295 0.024385865299129 0.715436478827209 -0.131260552850481
0.544550000000000 0.893953861479564 -0.416429361517318 -7.424549028579438 2.082599756834870 0.008064765961484 0.030852554177741 0.699770055946874 -0.166418535003260
0.669437500000000 0.844416111476688 -0.496702456162096 -7.179866109916241 2.484999885623703 0.011831836328599 0.036769154486932 0.681075181904313 -0.198859193293942
0.794325000000000 0.788403741738445 -0.568930050050244 -6.903201399478674 2.847664191931187 0.016091043416949 0.042073461469699 0.659931249939162 -0.228275192290064
0.919212500000000 0.727490689353792 -0.632662021377621 -6.602328420130446 3.168369592715094 0.020722604002187 0.046731219454951 0.636929862658286 -0.254497234461554
1.044100000000000 0.663194128230760 -0.687782027597231 -6.284740346454227 3.446541508775829 0.025611054748484 0.050733574749176 0.612641287953477 -0.277481480262865
1.168987500000000 0.596906957987317 -0.734454998048760 -5.957316573832895 3.682994535865550 0.030650390081748 0.054093079609948 0.587589083535898 -0.297289812146685
1.293875000000000 0.529853843525917 -0.773065390827181 -5.626105602107808 3.879627501256273 0.035747407758932 0.056838993340022 0.562233573488320 -0.314066627123402
1.418762500000000 0.463069084946874 -0.804154545832374 -5.296215737195303 4.039114056432393 0.040823393058737 0.059012514597089 0.536963530207476 -0.328015289601251
1.543650000000000 0.397392425666794 -0.828363137604383 -4.971794387784549 4.164618457137254 0.045814437801116 0.060662401818196 0.512094598796523 -0.339376501087722
1.668537500000000 0.333478033047294 -0.846382276988852 -4.656072419805369 4.259554059165883 0.050670756884550 0.061841251855730 0.487872672621367 -0.348409920734991
1.793425000000000 0.271811988362032 -0.858914709026910 -4.351450537705252 4.327391678445798 0.055355357227680 0.062602546977618 0.464480467279981 -0.355379580762822
1.918312500000000 0.212734309984751 -0.866646020540706 -4.059608054871939 4.371517388048498 0.059842361714166 0.062998463646555 0.442045798477713 -0.360543064235282
2.043200000000000 0.156462464874415 -0.870224820537223 -3.781619014613244 4.395134631093356 0.064115219872029 0.063078364167614 0.420650419310138 -0.364144055459182
2.168087500000000 0.103114260698249 -0.870250392788203 -3.518065252166676 4.401203238015498 0.068164965688998 0.062887856999202 0.400338624745581 -0.366407698956441
2.292975000000000 0.052728820196547 -0.867266205098054 -3.269139985084386 4.392407369456235 0.071988621377157 0.062468302782070 0.381125135277933 -0.367538159795319
2.417862500000000 0.005284967529912 -0.861757761476793 -3.034738621646599 4.371144908346622 0.075587798096386 0.061856650881259 0.363002007818735 -0.367717816293471
2.542750000000000 -0.039283197877032 -0.854153496391737 -2.814535678588889 4.339531876527334 0.078967510720898 0.061085507442759 0.345944489450788 -0.367107596150009
2.667637500000000 -0.081073475360929 -0.844827661404467 -2.608048127366876 4.299416691569157 0.082135201729914 0.060183355078873 0.329915838337518 -0.365848061457299
2.792525000000000 -0.120205252532318 -0.834104399218593 -2.414686316669389 4.252400288101939 0.085099956537293 0.059174862920439 0.314871199133626 -0.364060940025941
2.917412500000000 -0.156811396841724 -0.822262415324615 -2.233794019199937 4.199859190618602 0.087871886406482 0.058081242148637 0.300760650707713 -0.361850881329125
3.042300000000000 -0.191032012136291 -0.809539834208012 -2.064679267448037 4.142969497819259 0.090461653298942 0.056920615572823 0.287531552869017 -0.359307281818907
3.167187500000000 -0.223009734499308 -0.796138965188556 -1.906637587089516 4.082730420632632 0.092880111868327 0.055708380330918 0.275130314522346 -0.356506076275457
3.292075000000000 -0.252886272021396 -0.782230806481139 -1.758969086727092 4.019986527338524 0.095138046122999 0.054457550667378 0.263503694265122 -0.353511430761351
3.416962500000000 -0.280799931843121 -0.767959190850290 -1.620990671591812 3.955448218555770 0.097245981223960 0.053179073434971 0.252599729897679 -0.350377300861300
3.541850000000000 -0.306883918179709 -0.753444528313948 -1.492044449437554 3.889710212095014 0.099214053957701 0.051882112930330 0.242368378143689 -0.347148838464375
3.666737500000000 -0.331265223272184 -0.738787136200444 -1.371503208028608 3.823267989788364 0.101051928333201 0.050574304325398 0.232761931506668 -0.343863643444247
3.791625000000000 -0.354063967382832 -0.724070169048285 -1.258773674840259 3.756532267980910 0.102768745353050 0.049261976645252 0.223735266343674 -0.340552864931924
3.916512500000000 -0.375393073340247 -0.709362173995291 -1.153298124450973 3.689841618349954 0.104373098245178 0.047950347244127 0.215245965191430 -0.337242161820781
4.041400000000000 -0.395358185721222 -0.694719304211593 -1.054554777696668 3.623473399835532 0.105873026312463 0.046643690257165 0.207254347140474 -0.333952534740168
4.166287500000000 -0.414057764895565 -0.680187225652481 -0.962057337193681 3.557653175907016 0.107276022090129 0.045345481712545 0.199723432483317 -0.330701042756812
4.291175000000000 -0.431583302392101 -0.665802752432879 -0.875353923668069 3.492562791517854 0.108589047736196 0.044058523990590 0.192618861761399 -0.327501418072942
4.416062500000000 -0.448019616955791 -0.651595244506675 -0.794025613759199 3.428347276106694 0.109818557562860 0.042785052193302 0.185908784482505 -0.324364591381657
4.540950000000000 -0.463445200823184 -0.637587798795108 -0.717684729799862 3.365120726463199 0.110970524389696 0.041526824794510 0.179563728962469 -0.321299139585762
4.665837500000000 -0.477932593657201 -0.623798261933727 -0.645972992989614 3.302971308585014 0.112050468001866 0.040285200714459 0.173556461770455 -0.318311666468151
4.790725000000000 -0.491548767694417 -0.610240089711568 -0.578559621190689 3.241965502362263 0.113063484461642 0.039061204727035 0.167861842959689 -0.315407125738206
4.915612500000000 -0.504355512339754 -0.596923075254414 -0.515139429453147 3.182151698001632 0.114014275377880 0.037855582877882 0.162456681505799 -0.312589094742864
5.040500000000000 -0.516409810000185 -0.583853965169881 -0.455430973809760 3.123563239104667 0.114907176508760 0.036668849375937 0.157319594038076 -0.309860006065736
5.165387500000000 -0.527764197627798 -0.571036980284523 -0.399174765651018 3.066220994535120 0.115746185276944 0.035501326224034 0.152430868942073 -0.307221343265086
5.290275000000000 -0.538467110441208 -0.558474255285220 -0.346131574119633 3.010135529762409 0.116534986928450 0.034353176677773 0.147772337160757 -0.304673806130238
5.415162500000000 -0.548563205769231 -0.546166209529834 -0.296080826679314 2.955308938256585 0.117276979178747 0.033224433466094 0.143327250467044 -0.302217450066455
5.540050000000000 -0.558093666035096 -0.534111859502515 -0.248819112706486 2.901736384671929 0.117975295271362 0.032115022570760 0.139080167576706 -0.299851803545684
5.664937500000000 -0.567096480669146 -0.522309081837562 -0.204158791152200 2.849407403893303 0.118632825432875 0.031024783243897 0.135016848181363 -0.297575966977404
5.789825000000000 -0.575606707277540 -0.510754834498729 -0.161926700656749 2.798306993416317 0.119252236749199 0.029953484840996 0.131124154778457 -0.295388695851259
5.914712500000000 -0.583656712761297 -0.499445342554437 -0.121962968687632 2.748416530870041 0.119835991516021 0.028900840959500 0.127389962037222 -0.293288470572272
6.039600000000000 -0.591276395318410 -0.488376254009872 -0.084119915094268 2.699714543653627 0.120386364134358 0.027866521298605 0.123803073350076 -0.291273555041251
6.164487500000000 -0.598493388405360 -0.477542770322650 -0.048261044763516 2.652177353537421 0.120905456633161 0.026850161592365 0.120353144164855 -0.289342045719418
6.289375000000000 -0.605333247808980 -0.466939755519547 -0.014260123691649 2.605779615576898 0.121395212906549 0.025851371914246 0.117030611665311 -0.287491912649749
6.414262500000000 -0.611819623004632 -0.456561827230146 0.017999667335286 2.560494767715924 0.121857431755174 0.024869743605481 0.113826630357831 -0.285721033681344
6.539150000000000 -0.617974413966854 -0.446403432443309 0.048626507212189 2.516295404937595 0.122293778820464 0.023904855040764 0.110733013126076 -0.284027222951485
6.664037500000000 -0.623817914564876 -0.436458910360718 0.077720642729545 2.473153589688730 0.122705797497918 0.022956276411966 0.107742177327907 -0.282408254517799
6.788925000000000 -0.629368943625951 -0.426722544356434 0.105375035880554 2.431041108500071 0.123094918911888 0.022023573682785 0.104847095527524 -0.280861881895626
6.913812500000000 -0.634644964690284 -0.417188604742485 0.131675955317087 2.389929683198339 0.123462471029735 0.021106311843671 0.102041250478048 -0.279385854139566
7.038700000000000 -0.639662195416855 -0.407851383779218 0.156703516692389 2.349791143815985 0.123809686988391 0.020204057576562 0.099318593993940 -0.277977929010006
7.163587500000000 -0.644435707532823 -0.398705224148264 0.180532176299384 2.310597569213415 0.124137712701248 0.019316381422077 0.096673509377744 -0.276635883682357
7.288475000000000 -0.648979518152651 -0.389744541919109 0.203231182084820 2.272321400505702 0.124447613808255 0.018442859527652 0.094100777090628 -0.275357523386530
7.413362500000000 -0.653306673228174 -0.380963844882266 0.224864985798893 2.234935531605398 0.124740382027147 0.017583075043048 0.091595543380595 -0.274140688304790
7.538250000000000 -0.657429323828595 -0.372357746988339 0.245493619732484 2.198413380532771 0.125016940959007 0.016736619219501 0.089153291605651 -0.272983259005849
7.663137499999999 -0.661358795890383 -0.363920979519122 0.265173041202883 2.162728944585885 0.125278151396872 0.015903092260149 0.086769816011370 -0.271883160650563
7.788025000000000 -0.665105654021777 -0.355648399521089 0.283955447675723 2.127856841989931 0.125524816181864 0.015082103962126 0.084441197743095 -0.270838366168568
7.912912500000000 -0.668679759895078 -0.347534995950483 0.301889565156499 2.093772342244387 0.125757684647438 0.014273274184481 0.082163782892355 -0.269846898574700
8.037800000000001 -0.672090325712284 -0.339575893910475 0.319020912249757 2.060451387047150 0.125977456688698 0.013476233170900 0.079934162395011 -0.268906832568204
8.162687500000001 -0.675345963185731 -0.331766357302579 0.335392042067318 2.027870603386818 0.126184786490383 0.012690621751730 0.077749153615103 -0.268016295535841
8.287575000000000 -0.678454728435160 -0.324101790165089 0.351042763968041 1.996007310150380 0.126380285944087 0.011916091446087 0.075605783463539 -0.267173468061406
8.412462500000000 -0.681424163165783 -0.316577736929384 0.366010346929855 1.964839519386349 0.126564527782446 0.011152304481592 0.073501272914571 -0.266376584028427
8.537350000000000 -0.684261332458384 -0.309189881789351 0.380329706188822 1.934345933187729 0.126738048455494 0.010398933746617 0.071433022795658 -0.265623930389441
8.662237500000000 -0.686972859471845 -0.301934047348973 0.394033574629019 1.904505937009939 0.126901350772043 0.009655662687579 0.069398600737785 -0.264913846663870
8.787125000000000 -0.689564957330744 -0.294806192687478 0.407152660269689 1.875299590112135 0.127054906326840 0.008922185161911 0.067395729183776 -0.264244724216904
8.912012499999999 -0.692043458445400 -0.287802410959632 0.419715791071485 1.846707613702737 0.127199157732325 0.008198205255648 0.065422274361609 -0.263615005363579
9.036899999999999 -0.694413841488874 -0.280918926630272 0.431750048170597 1.818711377278461 0.127334520672079 0.007483437073170 0.063476236138366 -0.263023182335290
9.161787499999999 -0.696681256234674 -0.274152092426397 0.443280888547097 1.791292883568517 0.127461385791460 0.006777604505442 0.061555738678208 -0.262467796140078
9.286675000000001 -0.698850546440146 -0.267498386076816 0.454332258041081 1.764434752429528 0.127580120439519 0.006080440982084 0.059659021834876 -0.261947435342970
9.411562500000000 -0.700926270943516 -0.260954406897932 0.464926695546176 1.738120203980624 0.127691070274961 0.005391689211726 0.057784433215561 -0.261460734788418
9.536450000000000 -0.702912723127159 -0.254516872274636 0.475085429133969 1.712333041220488 0.127794560747782 0.004711100914369 0.055930420858822 -0.261006374283228
9.661337500000000 -0.704813948885739 -0.248182614077047 0.484828464794125 1.687057632327608 0.127890898467114 0.004038436548865 0.054095526474407 -0.260583077255290
9.786225000000000 -0.706633763225261 -0.241948575046883 0.494174668412692 1.662278892810576 0.127980372464888 0.003373465038073 0.052278379197638 -0.260189609400815
9.911112500000000 -0.708375765607681 -0.235811805181342 0.503141841554779 1.637982267646105 0.128063255364018 0.002715963493820 0.050477689815249 -0.259824777330555
10.036000000000000 -0.710043354145365 -0.229769458137338 0.511746791566782 1.614153713517638 0.128139804459073 0.002065716943416 0.048692245423470 -0.259487427223588
10.160887499999999 -0.711639738740388 -0.223818787674708 0.520005396467195 1.590779681246447 0.128210262716639 0.001422518059109 0.046920904482687 -0.259176443495664
10.285774999999999 -0.713167953255155 -0.217957144153387 0.527932665053237 1.567847098489329 0.128274859701960 0.000786166891659 0.045162592236135 -0.258890747487764
10.410662499999999 -0.714630866793197 -0.212181971096521 0.535542792612669 1.545343352761986 0.128333812437872 0.000156470608915 0.043416296463011 -0.258629296179344
10.535550000000001 -0.716031194162027 -0.206490801828909 0.542849212595894 1.523256274834476 0.128387326201483 -0.000466756759880 0.041681063538980 -0.258391080929817
10.660437500000000 -0.717371505583666 -0.200881256197990 0.549864644572296 1.501574122534432 0.128435595263597 -0.001083694573508 0.039955994779417 -0.258175126250977
10.785325000000000 -0.718654235712709 -0.195351037382799 0.556601138766648 1.480285564984706 0.128478803575454 -0.001694515821504 0.038240243042881 -0.257980488612394
10.910212500000000 -0.719881692016669 -0.189897928794746 0.563070117445766 1.459379667294630 0.128517125406918 -0.002299387359908 0.036533009574247 -0.257806255281244
11.035100000000000 -0.721056062568581 -0.184519791072822 0.569282413402419 1.438845875717658 0.128550725939960 -0.002898470139830 0.034833541068712 -0.257651543197545
11.159987500000000 -0.722179423297626 -0.179214559174773 0.575248305762406 1.418674003282989 0.128579761820873 -0.003491919428723 0.033141126939479 -0.257515497885373
11.284875000000000 -0.723253744739629 -0.173980239564869 0.580977553321536 1.398854215904346 0.128604381674447 -0.004079885024311 0.031455096773383 -0.257397292400300
11.409762499999999 -0.724280898325765 -0.168814907498198 0.586479425601864 1.379377018965505 0.128624726582985 -0.004662511461170 0.029774817960054 -0.257296126313027
11.534649999999999 -0.725262662244605 -0.163716704400802 0.591762731800661 1.360233244379202 0.128640930532862 -0.005239938210034 0.028099693481416 -0.257211224728955
11.659537499999999 -0.726200726909706 -0.158683835344479 0.596835847791203 1.341414038113651 0.128653120831054 -0.005812299869889 0.026429159849412 -0.257141837343244
11.784425000000001 -0.727096700062301 -0.153714566614703 0.601706741321324 1.322910848178962 0.128661418493907 -0.006379726353001 0.024762685180857 -0.257087237530791
11.909312500000000 -0.727952111536212 -0.148807223369768 0.606382995543711 1.304715413064208 0.128665938610197 -0.006942343062993 0.023099767399210 -0.257046721470406
12.034200000000000 -0.728768417709910 -0.143960187389068 0.610871831001042 1.286819750614681 0.128666790680378 -0.007500271066158 0.021439932553921 -0.257019607302400
12.159087500000000 -0.729547005668623 -0.139171894908180 0.615180126179066 1.269216147337979 0.128664078933774 -0.008053627256164 0.019782733248716 -0.257005234318715
12.283975000000000 -0.730289197097574 -0.134440834538331 0.619314436731715 1.251897148126818 0.128657902625294 -0.008602524512348 0.018127747170932 -0.257002962184678
12.408862500000000 -0.730996251925711 -0.129765545267685 0.623281013473971 1.234855546386075 0.128648356313176 -0.009147071851782 0.016474575714593 -0.257012170191429
12.533750000000000 -0.731669371737818 -0.125144614541876 0.627085819230700 1.218084374551158 0.128635530119092 -0.009687374575329 0.014822842690527 -0.257032256538031
12.658637499999999 -0.732309702971426 -0.120576676421108 0.630734544622682 1.201576894984672 0.128619509971881 -0.010223534407859 0.013172193117342 -0.257062637642286
12.783524999999999 -0.732918339913711 -0.116060409811214 0.634232622864766 1.185326591238291 0.128600377836059 -0.010755649632863 0.011522292087559 -0.257102747479249
12.908412499999999 -0.733496327512365 -0.111594536765979 0.637585243645241 1.169327159666748 0.128578211926170 -0.011283815221633 0.009872823703647 -0.257152036946444
13.033300000000001 -0.734044664013359 -0.107177820858150 0.640797366150231 1.153572501381015 0.128553086907968 -0.011808122957230 0.008223490079095 -0.257209973254807
13.158187500000000 -0.734564303437527 -0.102809065616514 0.643873731292032 1.138056714527867 0.128525074087329 -0.012328661553430 0.006574010400057 -0.257276039344372
13.283075000000000 -0.735056157906985 -0.098487113026517 0.646818873195815 1.122774086883299 0.128494241587732 -0.012845516768836 0.004924120043416 -0.257349733323749
13.407962500000000 -0.735521099831599 -0.094210842091934 0.649637129995086 1.107719088747519 0.128460654517093 -0.013358771516356 0.003273569747429 -0.257430567932464
13.532850000000000 -0.735959963964920 -0.089979167455171 0.652332653982445 1.092886366129520 0.128424375124665 -0.013868505968219 0.001622124831430 -0.257518070025242
13.657737500000000 -0.736373549338314 -0.085791038073827 0.654909421158804 1.078270734209596 0.128385462948663 -0.014374797656721 -0.000030435538708 -0.257611780077352
13.782624999999999 -0.736762621081393 -0.081645435951234 0.657371240220970 1.063867171068473 0.128343974955242 -0.014877721570867 -0.001684319042386 -0.257711251710148
13.907512499999999 -0.737127912136217 -0.077541374918756 0.659721761024657 1.049670811672108 0.128299965669383 -0.015377350249079 -0.003339720856177 -0.257816051235977
14.032399999999999 -0.737470124872245 -0.073477899467701 0.661964482557203 1.035676942101560 0.128253487298230 -0.015873753868137 -0.004996824268426 -0.257925757221642
14.157287499999999 -0.737789932608449 -0.069454083628771 0.664102760451889 1.021880994017686 0.128204589847358 -0.016367000328508 -0.006655801258976 -0.258039960069649
14.282175000000001 -0.738087981048623 -0.065469029897056 0.666139814073386 1.008278539350838 0.128153321230438 -0.016857155336212 -0.008316813046259 -0.258158261616484
14.407062500000000 -0.738364889635394 -0.061521868200658 0.668078733201814 0.994865285206020 0.128099727372706 -0.017344282481378 -0.009980010603857 -0.258280274747188
14.531950000000000 -0.738621252828144 -0.057611754911069 0.669922484340914 0.981637068974397 0.128043852308648 -0.017828443313625 -0.011645535148457 -0.258405623025559
14.656837500000000 -0.738857641309625 -0.053737871893568 0.671673916674068 0.968589853642385 0.127985738274254 -0.018309697414407 -0.013313518601015 -0.258533940339284
14.781725000000000 -0.739074603125743 -0.049899425595881 0.673335767690231 0.955719723289856 0.127925425794184 -0.018788102466449 -0.014984084022802 -0.258664870559382
